T2830 8398:600 SEGGER J-Link V5.10n Log File (0000ms, 8185ms total)
T2830 8398:600 DLL Compiled: Feb 19 2016 18:39:11 (0000ms, 8185ms total)
T2830 8398:600 Logging started @ 2019-08-06 12:22 (0000ms, 8185ms total)
T2830 8398:600 JLINK_SetWarnOutHandler(...) (0000ms, 8185ms total)
T2830 8398:600 JLINK_OpenEx(...)
Firmware: J-Link ARM-OB STM32 compiled Aug 22 2012 19:52:04
Hardware: V7.00
S/N: 20090937
Feature(s): RDI,FlashDL,FlashBP,JFlash,GDBFull  returns O.K. (0272ms, 8457ms total)
T2830 8398:872 JLINK_GetEmuCaps()  returns 0xC8EA5873 (0000ms, 8457ms total)
T2830 8398:872 JLINK_TIF_GetAvailable(...) (0001ms, 8458ms total)
T2830 8398:873 JLINK_SetErrorOutHandler(...) (0000ms, 8458ms total)
T2830 8398:873 JLINK_ExecCommand("ProjectFile = "E:\RoboMaster\测试代码\新工程车代码\工程总决赛稳定方案2\工程车（红）\工程主控F105\JLinkSettings.ini"", ...)  returns 0x00 (0001ms, 8459ms total)
T2830 8398:884 JLINK_ExecCommand("Device = STM32F105RB", ...)Device "STM32F105RB" selected.  returns 0x00 (0019ms, 8478ms total)
T2830 8398:903 JLINK_ExecCommand("DisableConnectionTimeout", ...)  returns 0x01 (0000ms, 8478ms total)
T2830 8398:903 JLINK_GetHardwareVersion()  returns 0x11170 (0000ms, 8478ms total)
T2830 8398:903 JLINK_GetDLLVersion()  returns 51014 (0000ms, 8478ms total)
T2830 8398:903 JLINK_GetFirmwareString(...) (0000ms, 8478ms total)
T2830 8398:925 JLINK_GetDLLVersion()  returns 51014 (0000ms, 8478ms total)
T2830 8398:925 JLINK_GetCompileDateTime() (0000ms, 8478ms total)
T2830 8398:931 JLINK_GetFirmwareString(...) (0000ms, 8478ms total)
T2830 8398:937 JLINK_GetHardwareVersion()  returns 0x11170 (0000ms, 8478ms total)
T2830 8398:958 JLINK_TIF_Select(JLINKARM_TIF_SWD)  returns 0x00 (0000ms, 8478ms total)
T2830 8398:958 JLINK_SetSpeed(5000) (0001ms, 8479ms total)
T2830 8398:959 JLINK_GetId() >0x108 TIF>Found SWD-DP with ID 0x1BA01477 >0x0D TIF> >0x28 TIF> >0x0D TIF> >0x28 TIF> >0x0D TIF> >0x28 TIF> >0x0D TIF> >0x28 TIF> >0x0D TIF> >0x21 TIF> >0x0D TIF> >0x28 TIF> >0x0D TIF> >0x28 TIF> >0x0D TIF> >0x28 TIF> >0x0D TIF> >0x21 TIF> >0x0D TIF> >0x21 TIF> >0x0D TIF> >0x28 TIF> >0x0D TIF> >0x21 TIF> >0x0D TIF> >0x21 TIF> >0x0D TIF> >0x28 TIF> >0x0D TIF> >0x28 TIF> >0x0D TIF> >0x28 TIF> >0x0D TIF> >0x21 TIF> >0x0D TIF> >0x21 TIF> >0x0D TIF> >0x28 TIF> >0x0D TIF>
 >0x21 TIF> >0x0D TIF> >0x21 TIF> >0x0D TIF> >0x28 TIF> >0x0D TIF> >0x21 TIF> >0x0D TIF> >0x21 TIF> >0x0D TIF> >0x28 TIF> >0x0D TIF> >0x21 TIF> >0x0D TIF> >0x21 TIF> >0x108 TIF>Found SWD-DP with ID 0x1BA01477 >0x0D TIF> >0x28 TIF> >0x0D TIF> >0x28 TIF> >0x0D TIF> >0x28 TIF> >0x0D TIF> >0x28 TIF> >0x0D TIF> >0x21 TIF> >0x0D TIF> >0x28 TIF> >0x0D TIF> >0x28 TIF> >0x0D TIF> >0x21 TIF> >0x0D TIF> >0x21 TIF> >0x0D TIF> >0x21 TIF> >0x0D TIF> >0x28 TIF> >0x0D TIF> >0x28 TIF> >0x0D TIF> >0x28 TIF> >0x0D TIF>
 >0x21 TIF> >0x0D TIF> >0x21 TIF> >0x0D TIF> >0x28 TIF> >0x0D TIF> >0x21 TIF> >0x0D TIF> >0x21 TIF>Found Cortex-M3 r1p1, Little endian. -- CPU_ReadMem(4 bytes @ 0xE000EDF0) -- CPU_WriteMem(4 bytes @ 0xE000EDF0) -- CPU_ReadMem(4 bytes @ 0xE0002000)FPUnit: 6 code (BP) slots and 2 literal slots -- CPU_ReadMem(4 bytes @ 0xE000EDFC) -- CPU_WriteMem(4 bytes @ 0xE000EDFC) -- CPU_ReadMem(4 bytes @ 0xE0001000) -- CPU_WriteMem(4 bytes @ 0xE0001000) -- CPU_ReadMem(4 bytes @ 0xE000ED88)
 -- CPU_WriteMem(4 bytes @ 0xE000ED88) -- CPU_ReadMem(4 bytes @ 0xE000ED88) -- CPU_WriteMem(4 bytes @ 0xE000ED88)CoreSight components:ROMTbl 0 @ E00FF000 -- CPU_ReadMem(16 bytes @ 0xE00FF000) -- CPU_ReadMem(16 bytes @ 0xE000EFF0) -- CPU_ReadMem(16 bytes @ 0xE000EFE0)ROMTbl 0 [0]: FFF0F000, CID: B105E00D, PID: 001BB000 SCS -- CPU_ReadMem(16 bytes @ 0xE0001FF0) -- CPU_ReadMem(16 bytes @ 0xE0001FE0)ROMTbl 0 [1]: FFF02000, CID: B105E00D, PID: 001BB002 DWT -- CPU_ReadMem(16 bytes @ 0xE0002FF0)
 -- CPU_ReadMem(16 bytes @ 0xE0002FE0)ROMTbl 0 [2]: FFF03000, CID: B105E00D, PID: 000BB003 FPB -- CPU_ReadMem(16 bytes @ 0xE0000FF0) -- CPU_ReadMem(16 bytes @ 0xE0000FE0)ROMTbl 0 [3]: FFF01000, CID: B105E00D, PID: 001BB001 ITM -- CPU_ReadMem(16 bytes @ 0xE00FF010) -- CPU_ReadMem(16 bytes @ 0xE0040FF0) -- CPU_ReadMem(16 bytes @ 0xE0040FE0)ROMTbl 0 [4]: FFF41000, CID: B105900D, PID: 001BB923 TPIU-Lite -- CPU_ReadMem(16 bytes @ 0xE0041FF0) -- CPU_ReadMem(16 bytes @ 0xE0041FE0)
ROMTbl 0 [5]: FFF42000, CID: B105900D, PID: 101BB924 ETM-M3 >0x0D TIF> >0x21 TIF>  returns 0x1BA01477 (0103ms, 8582ms total)
T2830 8399:062 JLINK_GetDLLVersion()  returns 51014 (0000ms, 8582ms total)
T2830 8399:062 JLINK_CORE_GetFound()  returns 0x30000FF (0001ms, 8583ms total)
T2830 8399:063 JLINK_GetDebugInfo(0x100) -- Value=0xE00FF000  returns 0x00 (0000ms, 8583ms total)
T2830 8399:067 JLINK_GetDebugInfo(0x100) -- Value=0xE00FF000  returns 0x00 (0000ms, 8583ms total)
T2830 8399:067 JLINK_GetDebugInfo(0x101) -- Value=0xE0041000  returns 0x00 (0000ms, 8583ms total)
T2830 8399:067 JLINK_ReadMemEx(0xE0041FD0, 0x0020 Bytes, ..., AccessWidth = 33554436) -- CPU is running -- CPU_ReadMem(32 bytes @ 0xE0041FD0) - Data: 04 00 00 00 00 00 00 00 00 00 00 00 00 00 00 00 ...  returns 0x20 (0001ms, 8584ms total)
T2830 8399:068 JLINK_GetDebugInfo(0x102) -- Value=0x00000000  returns 0x00 (0000ms, 8584ms total)
T2830 8399:068 JLINK_GetDebugInfo(0x103) -- Value=0xE0040000  returns 0x00 (0000ms, 8584ms total)
T2830 8399:068 JLINK_GetDebugInfo(0x104) -- Value=0xE0000000  returns 0x00 (0000ms, 8584ms total)
T2830 8399:068 JLINK_GetDebugInfo(0x105) -- Value=0xE0001000  returns 0x00 (0000ms, 8584ms total)
T2830 8399:068 JLINK_GetDebugInfo(0x106) -- Value=0xE0002000  returns 0x00 (0000ms, 8584ms total)
T2830 8399:068 JLINK_GetDebugInfo(0x107) -- Value=0xE000E000  returns 0x00 (0000ms, 8584ms total)
T2830 8399:068 JLINK_GetDebugInfo(0x10C) -- Value=0xE000EDF0  returns 0x00 (0000ms, 8584ms total)
T2830 8399:068 JLINK_GetDebugInfo(0x01)  returns 0xFFFFFFFF (0000ms, 8584ms total)
T2830 8399:068 JLINK_GetDeviceFamily()  returns 3 (0000ms, 8584ms total)
T2830 8399:068 JLINK_ReadMemU32(0xE000ED00, 0x0001 Items, ...) -- CPU is running -- CPU_ReadMem(4 bytes @ 0xE000ED00) - Data: 31 C2 1F 41  returns 0x01 (0001ms, 8585ms total)
T2830 8399:069 JLINK_GetDebugInfo(0x10F)  returns 0xFFFFFFFF (0000ms, 8585ms total)
T2830 8399:069 JLINK_SetResetType(JLINKARM_RESET_TYPE_NORMAL)  returns JLINKARM_RESET_TYPE_NORMAL (0000ms, 8585ms total)
T2830 8399:069 JLINK_Reset() -- CPU is running -- CPU_WriteMem(4 bytes @ 0xE000EDF0) -- CPU is running -- CPU_WriteMem(4 bytes @ 0xE000EDFC) >0x35 TIF> -- CPU is running -- CPU_WriteMem(4 bytes @ 0xE000ED0C) -- CPU is running -- CPU_ReadMem(4 bytes @ 0xE000EDF0) -- CPU is running -- CPU_ReadMem(4 bytes @ 0xE000EDF0) -- CPU is running -- CPU_WriteMem(4 bytes @ 0xE000EDF0) -- CPU is running -- CPU_WriteMem(4 bytes @ 0xE000EDFC) -- CPU is running -- CPU_ReadMem(4 bytes @ 0xE000EDF0)
 -- CPU_WriteMem(4 bytes @ 0xE0002000) -- CPU_ReadMem(4 bytes @ 0xE000EDFC) -- CPU_ReadMem(4 bytes @ 0xE0001000) (0019ms, 8604ms total)
T2830 8399:088 JLINK_Halt()  returns 0x00 (0000ms, 8604ms total)
T2830 8399:088 JLINK_ReadMemU32(0xE000EDF0, 0x0001 Items, ...) -- CPU_ReadMem(4 bytes @ 0xE000EDF0) - Data: 03 00 03 00  returns 0x01 (0000ms, 8604ms total)
T2830 8399:088 JLINK_WriteU32(0xE000EDF0, 0xA05F0003) -- CPU_WriteMem(4 bytes @ 0xE000EDF0)  returns 0x00 (0001ms, 8605ms total)
T2830 8399:089 JLINK_WriteU32(0xE000EDFC, 0x01000000) -- CPU_WriteMem(4 bytes @ 0xE000EDFC)  returns 0x00 (0000ms, 8605ms total)
T2830 8399:107 JLINK_GetHWStatus(...)  returns 0x00 (0000ms, 8605ms total)
T2830 8399:122 JLINK_GetNumBPUnits(Type = 0xFFFFFF00)  returns 0x06 (0000ms, 8605ms total)
T2830 8399:122 JLINK_GetNumBPUnits(Type = 0xF0)  returns 0x2000 (0000ms, 8605ms total)
T2830 8399:122 JLINK_GetNumWPUnits()  returns 0x04 (0000ms, 8605ms total)
T2830 8399:135 JLINK_GetSpeed()  returns 0xFA0 (0000ms, 8605ms total)
T2830 8399:145 JLINK_ReadMemU32(0xE000E004, 0x0001 Items, ...) -- CPU_ReadMem(4 bytes @ 0xE000E004) - Data: 02 00 00 00  returns 0x01 (0001ms, 8606ms total)
T2830 8399:146 JLINK_ReadMemU32(0xE000E004, 0x0001 Items, ...) -- CPU_ReadMem(4 bytes @ 0xE000E004) - Data: 02 00 00 00  returns 0x01 (0001ms, 8607ms total)
T2830 8399:147 JLINK_WriteMemEx(0xE0001000, 0x001C Bytes, ..., AccessWidth = 33554436) - Data: 01 00 00 00 00 00 00 00 00 00 00 00 00 00 00 00 ... -- CPU_WriteMem(28 bytes @ 0xE0001000)  returns 0x1C (0002ms, 8609ms total)
T2830 8399:149 JLINK_Halt()  returns 0x00 (0000ms, 8609ms total)
T2830 8399:149 JLINK_IsHalted()  returns TRUE (0000ms, 8609ms total)
T2830 8399:156 JLINK_WriteMem(0x20000000, 0x0164 Bytes, ...) - Data: 00 BE 0A E0 0D 78 2D 06 68 40 08 24 40 00 00 D3 ... -- CPU_WriteMem(356 bytes @ 0x20000000)  returns 0x164 (0006ms, 8615ms total)
T2830 8399:162 JLINK_WriteReg(R0, 0x08000000)  returns 0x00 (0000ms, 8615ms total)
T2830 8399:162 JLINK_WriteReg(R1, 0x007A1200)  returns 0x00 (0000ms, 8615ms total)
T2830 8399:162 JLINK_WriteReg(R2, 0x00000001)  returns 0x00 (0000ms, 8615ms total)
T2830 8399:162 JLINK_WriteReg(R3, 0x00000000)  returns 0x00 (0000ms, 8615ms total)
T2830 8399:162 JLINK_WriteReg(R4, 0x00000000)  returns 0x00 (0000ms, 8615ms total)
T2830 8399:162 JLINK_WriteReg(R5, 0x00000000)  returns 0x00 (0000ms, 8615ms total)
T2830 8399:162 JLINK_WriteReg(R6, 0x00000000)  returns 0x00 (0000ms, 8615ms total)
T2830 8399:162 JLINK_WriteReg(R7, 0x00000000)  returns 0x00 (0000ms, 8615ms total)
T2830 8399:162 JLINK_WriteReg(R8, 0x00000000)  returns 0x00 (0000ms, 8615ms total)
T2830 8399:162 JLINK_WriteReg(R9, 0x20000160)  returns 0x00 (0000ms, 8615ms total)
T2830 8399:162 JLINK_WriteReg(R10, 0x00000000)  returns 0x00 (0000ms, 8615ms total)
T2830 8399:162 JLINK_WriteReg(R11, 0x00000000)  returns 0x00 (0000ms, 8615ms total)
T2830 8399:162 JLINK_WriteReg(R12, 0x00000000)  returns 0x00 (0000ms, 8615ms total)
T2830 8399:162 JLINK_WriteReg(R13 (SP), 0x20001000)  returns 0x00 (0000ms, 8615ms total)
T2830 8399:162 JLINK_WriteReg(R14, 0x20000001)  returns 0x00 (0000ms, 8615ms total)
T2830 8399:162 JLINK_WriteReg(R15 (PC), 0x20000038)  returns 0x00 (0000ms, 8615ms total)
T2830 8399:162 JLINK_WriteReg(XPSR, 0x01000000)  returns 0x00 (0000ms, 8615ms total)
T2830 8399:162 JLINK_WriteReg(MSP, 0x20001000)  returns 0x00 (0000ms, 8615ms total)
T2830 8399:162 JLINK_WriteReg(PSP, 0x20001000)  returns 0x00 (0000ms, 8615ms total)
T2830 8399:162 JLINK_WriteReg(CFBP, 0x00000000)  returns 0x00 (0000ms, 8615ms total)
T2830 8399:162 JLINK_SetBPEx(Addr = 0x20000000, Type = 0xFFFFFFF2) -- CPU_ReadMem(2 bytes @ 0x20000000)  returns 0x00000001 (0001ms, 8616ms total)
T2830 8399:163 JLINK_Go() -- CPU_WriteMem(2 bytes @ 0x20000000) -- CPU_ReadMem(4 bytes @ 0xE0001000) -- CPU_WriteMem(4 bytes @ 0xE0002008) -- CPU_WriteMem(4 bytes @ 0xE000200C) -- CPU_WriteMem(4 bytes @ 0xE0002010) -- CPU_WriteMem(4 bytes @ 0xE0002014) -- CPU_WriteMem(4 bytes @ 0xE0002018) -- CPU_WriteMem(4 bytes @ 0xE000201C) -- CPU_WriteMem(4 bytes @ 0xE0001004) (0007ms, 8623ms total)
T2830 8399:170 JLINK_IsHalted() -- CPU_ReadMem(2 bytes @ 0x20000000)  returns TRUE (0003ms, 8626ms total)
T2830 8399:173 JLINK_ReadReg(R15 (PC))  returns 0x20000000 (0000ms, 8623ms total)
T2830 8399:173 JLINK_ClrBPEx(BPHandle = 0x00000001)  returns 0x00 (0000ms, 8623ms total)
T2830 8399:173 JLINK_ReadReg(R0)  returns 0x00000000 (0000ms, 8623ms total)
T2830 8399:174 JLINK_WriteReg(R0, 0x08000000)  returns 0x00 (0000ms, 8623ms total)
T2830 8399:174 JLINK_WriteReg(R1, 0x007A1200)  returns 0x00 (0000ms, 8623ms total)
T2830 8399:174 JLINK_WriteReg(R2, 0x00000001)  returns 0x00 (0000ms, 8623ms total)
T2830 8399:174 JLINK_WriteReg(R3, 0x00000000)  returns 0x00 (0000ms, 8623ms total)
T2830 8399:174 JLINK_WriteReg(R4, 0x00000000)  returns 0x00 (0000ms, 8623ms total)
T2830 8399:174 JLINK_WriteReg(R5, 0x00000000)  returns 0x00 (0000ms, 8623ms total)
T2830 8399:174 JLINK_WriteReg(R6, 0x00000000)  returns 0x00 (0000ms, 8623ms total)
T2830 8399:174 JLINK_WriteReg(R7, 0x00000000)  returns 0x00 (0000ms, 8623ms total)
T2830 8399:174 JLINK_WriteReg(R8, 0x00000000)  returns 0x00 (0000ms, 8623ms total)
T2830 8399:174 JLINK_WriteReg(R9, 0x20000160)  returns 0x00 (0000ms, 8623ms total)
T2830 8399:174 JLINK_WriteReg(R10, 0x00000000)  returns 0x00 (0000ms, 8623ms total)
T2830 8399:174 JLINK_WriteReg(R11, 0x00000000)  returns 0x00 (0000ms, 8623ms total)
T2830 8399:174 JLINK_WriteReg(R12, 0x00000000)  returns 0x00 (0000ms, 8623ms total)
T2830 8399:174 JLINK_WriteReg(R13 (SP), 0x20001000)  returns 0x00 (0000ms, 8623ms total)
T2830 8399:174 JLINK_WriteReg(R14, 0x20000001)  returns 0x00 (0000ms, 8623ms total)
T2830 8399:174 JLINK_WriteReg(R15 (PC), 0x2000007C)  returns 0x00 (0000ms, 8623ms total)
T2830 8399:174 JLINK_WriteReg(XPSR, 0x01000000)  returns 0x00 (0000ms, 8623ms total)
T2830 8399:174 JLINK_WriteReg(MSP, 0x20001000)  returns 0x00 (0000ms, 8623ms total)
T2830 8399:174 JLINK_WriteReg(PSP, 0x20001000)  returns 0x00 (0000ms, 8623ms total)
T2830 8399:174 JLINK_WriteReg(CFBP, 0x00000000)  returns 0x00 (0000ms, 8623ms total)
T2830 8399:174 JLINK_SetBPEx(Addr = 0x20000000, Type = 0xFFFFFFF2)  returns 0x00000002 (0000ms, 8623ms total)
T2830 8399:174 JLINK_Go() -- CPU_ReadMem(4 bytes @ 0xE0001000) (0002ms, 8625ms total)
T2830 8399:176 JLINK_IsHalted()  returns FALSE (0001ms, 8626ms total)
T2830 8399:285 JLINK_IsHalted() -- CPU_ReadMem(2 bytes @ 0x20000000)  returns TRUE (0003ms, 8628ms total)
T2830 8399:288 JLINK_ReadReg(R15 (PC))  returns 0x20000000 (0000ms, 8625ms total)
T2830 8399:289 JLINK_ClrBPEx(BPHandle = 0x00000002)  returns 0x00 (0000ms, 8626ms total)
T2830 8399:289 JLINK_ReadReg(R0)  returns 0x00000000 (0000ms, 8626ms total)
T2830 8399:343 JLINK_WriteReg(R0, 0x00000001)  returns 0x00 (0000ms, 8626ms total)
T2830 8399:343 JLINK_WriteReg(R1, 0x007A1200)  returns 0x00 (0000ms, 8626ms total)
T2830 8399:343 JLINK_WriteReg(R2, 0x00000001)  returns 0x00 (0000ms, 8626ms total)
T2830 8399:343 JLINK_WriteReg(R3, 0x00000000)  returns 0x00 (0000ms, 8626ms total)
T2830 8399:343 JLINK_WriteReg(R4, 0x00000000)  returns 0x00 (0000ms, 8626ms total)
T2830 8399:343 JLINK_WriteReg(R5, 0x00000000)  returns 0x00 (0000ms, 8626ms total)
T2830 8399:343 JLINK_WriteReg(R6, 0x00000000)  returns 0x00 (0000ms, 8626ms total)
T2830 8399:343 JLINK_WriteReg(R7, 0x00000000)  returns 0x00 (0000ms, 8626ms total)
T2830 8399:343 JLINK_WriteReg(R8, 0x00000000)  returns 0x00 (0000ms, 8626ms total)
T2830 8399:343 JLINK_WriteReg(R9, 0x20000160)  returns 0x00 (0000ms, 8626ms total)
T2830 8399:343 JLINK_WriteReg(R10, 0x00000000)  returns 0x00 (0000ms, 8626ms total)
T2830 8399:343 JLINK_WriteReg(R11, 0x00000000)  returns 0x00 (0000ms, 8626ms total)
T2830 8399:343 JLINK_WriteReg(R12, 0x00000000)  returns 0x00 (0000ms, 8626ms total)
T2830 8399:343 JLINK_WriteReg(R13 (SP), 0x20001000)  returns 0x00 (0000ms, 8626ms total)
T2830 8399:343 JLINK_WriteReg(R14, 0x20000001)  returns 0x00 (0000ms, 8626ms total)
T2830 8399:343 JLINK_WriteReg(R15 (PC), 0x2000006A)  returns 0x00 (0000ms, 8626ms total)
T2830 8399:343 JLINK_WriteReg(XPSR, 0x01000000)  returns 0x00 (0000ms, 8626ms total)
T2830 8399:343 JLINK_WriteReg(MSP, 0x20001000)  returns 0x00 (0000ms, 8626ms total)
T2830 8399:343 JLINK_WriteReg(PSP, 0x20001000)  returns 0x00 (0000ms, 8626ms total)
T2830 8399:343 JLINK_WriteReg(CFBP, 0x00000000)  returns 0x00 (0000ms, 8626ms total)
T2830 8399:343 JLINK_SetBPEx(Addr = 0x20000000, Type = 0xFFFFFFF2)  returns 0x00000003 (0000ms, 8626ms total)
T2830 8399:343 JLINK_Go() -- CPU_ReadMem(4 bytes @ 0xE0001000) (0003ms, 8629ms total)
T2830 8399:346 JLINK_IsHalted() -- CPU_ReadMem(2 bytes @ 0x20000000)  returns TRUE (0004ms, 8633ms total)
T2830 8399:350 JLINK_ReadReg(R15 (PC))  returns 0x20000000 (0000ms, 8629ms total)
T2830 8399:350 JLINK_ClrBPEx(BPHandle = 0x00000003)  returns 0x00 (0000ms, 8629ms total)
T2830 8399:350 JLINK_ReadReg(R0)  returns 0x00000000 (0000ms, 8629ms total)
T2830 8399:361 JLINK_WriteMem(0x20000000, 0x0164 Bytes, ...) - Data: 00 BE 0A E0 0D 78 2D 06 68 40 08 24 40 00 00 D3 ... -- CPU_WriteMem(356 bytes @ 0x20000000)  returns 0x164 (0005ms, 8634ms total)
T2830 8399:366 JLINK_WriteReg(R0, 0x08000000)  returns 0x00 (0000ms, 8634ms total)
T2830 8399:366 JLINK_WriteReg(R1, 0x007A1200)  returns 0x00 (0000ms, 8634ms total)
T2830 8399:366 JLINK_WriteReg(R2, 0x00000002)  returns 0x00 (0000ms, 8634ms total)
T2830 8399:366 JLINK_WriteReg(R3, 0x00000000)  returns 0x00 (0000ms, 8634ms total)
T2830 8399:366 JLINK_WriteReg(R4, 0x00000000)  returns 0x00 (0000ms, 8634ms total)
T2830 8399:366 JLINK_WriteReg(R5, 0x00000000)  returns 0x00 (0000ms, 8634ms total)
T2830 8399:366 JLINK_WriteReg(R6, 0x00000000)  returns 0x00 (0000ms, 8634ms total)
T2830 8399:366 JLINK_WriteReg(R7, 0x00000000)  returns 0x00 (0000ms, 8634ms total)
T2830 8399:366 JLINK_WriteReg(R8, 0x00000000)  returns 0x00 (0000ms, 8634ms total)
T2830 8399:366 JLINK_WriteReg(R9, 0x20000160)  returns 0x00 (0000ms, 8634ms total)
T2830 8399:366 JLINK_WriteReg(R10, 0x00000000)  returns 0x00 (0000ms, 8634ms total)
T2830 8399:366 JLINK_WriteReg(R11, 0x00000000)  returns 0x00 (0000ms, 8634ms total)
T2830 8399:366 JLINK_WriteReg(R12, 0x00000000)  returns 0x00 (0000ms, 8634ms total)
T2830 8399:366 JLINK_WriteReg(R13 (SP), 0x20001000)  returns 0x00 (0000ms, 8634ms total)
T2830 8399:366 JLINK_WriteReg(R14, 0x20000001)  returns 0x00 (0000ms, 8634ms total)
T2830 8399:366 JLINK_WriteReg(R15 (PC), 0x20000038)  returns 0x00 (0000ms, 8634ms total)
T2830 8399:366 JLINK_WriteReg(XPSR, 0x01000000)  returns 0x00 (0000ms, 8634ms total)
T2830 8399:366 JLINK_WriteReg(MSP, 0x20001000)  returns 0x00 (0000ms, 8634ms total)
T2830 8399:366 JLINK_WriteReg(PSP, 0x20001000)  returns 0x00 (0000ms, 8634ms total)
T2830 8399:366 JLINK_WriteReg(CFBP, 0x00000000)  returns 0x00 (0000ms, 8634ms total)
T2830 8399:366 JLINK_SetBPEx(Addr = 0x20000000, Type = 0xFFFFFFF2) -- CPU_ReadMem(2 bytes @ 0x20000000)  returns 0x00000004 (0001ms, 8635ms total)
T2830 8399:367 JLINK_Go() -- CPU_WriteMem(2 bytes @ 0x20000000) -- CPU_ReadMem(4 bytes @ 0xE0001000) (0003ms, 8638ms total)
T2830 8399:370 JLINK_IsHalted() -- CPU_ReadMem(2 bytes @ 0x20000000)  returns TRUE (0004ms, 8642ms total)
T2830 8399:374 JLINK_ReadReg(R15 (PC))  returns 0x20000000 (0000ms, 8638ms total)
T2830 8399:374 JLINK_ClrBPEx(BPHandle = 0x00000004)  returns 0x00 (0000ms, 8638ms total)
T2830 8399:374 JLINK_ReadReg(R0)  returns 0x00000000 (0000ms, 8638ms total)
T2830 8399:375 JLINK_WriteMem(0x20000164, 0x029C Bytes, ...) - Data: 58 0A 00 20 65 01 00 08 8D 1F 00 08 B1 19 00 08 ... -- CPU_WriteMem(668 bytes @ 0x20000164)  returns 0x29C (0008ms, 8646ms total)
T2830 8399:383 JLINK_WriteMem(0x20000400, 0x0164 Bytes, ...) - Data: C2 B2 0C 06 04 EB D0 10 40 1C 40 08 80 2A 02 D0 ... -- CPU_WriteMem(356 bytes @ 0x20000400)  returns 0x164 (0006ms, 8652ms total)
T2830 8399:389 JLINK_WriteReg(R0, 0x08000000)  returns 0x00 (0000ms, 8652ms total)
T2830 8399:389 JLINK_WriteReg(R1, 0x00000400)  returns 0x00 (0000ms, 8652ms total)
T2830 8399:389 JLINK_WriteReg(R2, 0x20000164)  returns 0x00 (0000ms, 8652ms total)
T2830 8399:389 JLINK_WriteReg(R3, 0x00000000)  returns 0x00 (0000ms, 8652ms total)
T2830 8399:389 JLINK_WriteReg(R4, 0x00000000)  returns 0x00 (0000ms, 8652ms total)
T2830 8399:389 JLINK_WriteReg(R5, 0x00000000)  returns 0x00 (0000ms, 8652ms total)
T2830 8399:389 JLINK_WriteReg(R6, 0x00000000)  returns 0x00 (0000ms, 8652ms total)
T2830 8399:389 JLINK_WriteReg(R7, 0x00000000)  returns 0x00 (0000ms, 8652ms total)
T2830 8399:389 JLINK_WriteReg(R8, 0x00000000)  returns 0x00 (0000ms, 8652ms total)
T2830 8399:389 JLINK_WriteReg(R9, 0x20000160)  returns 0x00 (0000ms, 8652ms total)
T2830 8399:389 JLINK_WriteReg(R10, 0x00000000)  returns 0x00 (0000ms, 8652ms total)
T2830 8399:389 JLINK_WriteReg(R11, 0x00000000)  returns 0x00 (0000ms, 8652ms total)
T2830 8399:389 JLINK_WriteReg(R12, 0x00000000)  returns 0x00 (0000ms, 8652ms total)
T2830 8399:389 JLINK_WriteReg(R13 (SP), 0x20001000)  returns 0x00 (0000ms, 8652ms total)
T2830 8399:389 JLINK_WriteReg(R14, 0x20000001)  returns 0x00 (0000ms, 8652ms total)
T2830 8399:389 JLINK_WriteReg(R15 (PC), 0x200000F4)  returns 0x00 (0000ms, 8652ms total)
T2830 8399:389 JLINK_WriteReg(XPSR, 0x01000000)  returns 0x00 (0000ms, 8652ms total)
T2830 8399:389 JLINK_WriteReg(MSP, 0x20001000)  returns 0x00 (0000ms, 8652ms total)
T2830 8399:389 JLINK_WriteReg(PSP, 0x20001000)  returns 0x00 (0000ms, 8652ms total)
T2830 8399:389 JLINK_WriteReg(CFBP, 0x00000000)  returns 0x00 (0000ms, 8652ms total)
T2830 8399:389 JLINK_SetBPEx(Addr = 0x20000000, Type = 0xFFFFFFF2)  returns 0x00000005 (0000ms, 8652ms total)
T2830 8399:389 JLINK_Go() -- CPU_ReadMem(4 bytes @ 0xE0001000) (0004ms, 8656ms total)
T2830 8399:393 JLINK_IsHalted()  returns FALSE (0000ms, 8656ms total)
T2830 8399:443 JLINK_IsHalted() -- CPU_ReadMem(2 bytes @ 0x20000000)  returns TRUE (0004ms, 8660ms total)
T2830 8399:447 JLINK_ReadReg(R15 (PC))  returns 0x20000000 (0000ms, 8656ms total)
T2830 8399:447 JLINK_ClrBPEx(BPHandle = 0x00000005)  returns 0x00 (0000ms, 8656ms total)
T2830 8399:447 JLINK_ReadReg(R0)  returns 0x00000000 (0000ms, 8656ms total)
T2830 8399:447 JLINK_WriteMem(0x20000164, 0x029C Bytes, ...) - Data: 00 43 52 42 63 EB 04 03 99 42 08 BF 90 42 30 BD ... -- CPU_WriteMem(668 bytes @ 0x20000164)  returns 0x29C (0009ms, 8665ms total)
T2830 8399:456 JLINK_WriteMem(0x20000400, 0x0164 Bytes, ...) - Data: 01 F0 3F F9 00 20 01 90 8D F8 08 00 8D F8 09 00 ... -- CPU_WriteMem(356 bytes @ 0x20000400)  returns 0x164 (0005ms, 8670ms total)
T2830 8399:461 JLINK_WriteReg(R0, 0x08000400)  returns 0x00 (0000ms, 8670ms total)
T2830 8399:461 JLINK_WriteReg(R1, 0x00000400)  returns 0x00 (0000ms, 8670ms total)
T2830 8399:461 JLINK_WriteReg(R2, 0x20000164)  returns 0x00 (0000ms, 8670ms total)
T2830 8399:461 JLINK_WriteReg(R3, 0x00000000)  returns 0x00 (0000ms, 8670ms total)
T2830 8399:461 JLINK_WriteReg(R4, 0x00000000)  returns 0x00 (0000ms, 8670ms total)
T2830 8399:461 JLINK_WriteReg(R5, 0x00000000)  returns 0x00 (0000ms, 8670ms total)
T2830 8399:461 JLINK_WriteReg(R6, 0x00000000)  returns 0x00 (0000ms, 8670ms total)
T2830 8399:461 JLINK_WriteReg(R7, 0x00000000)  returns 0x00 (0000ms, 8670ms total)
T2830 8399:461 JLINK_WriteReg(R8, 0x00000000)  returns 0x00 (0000ms, 8670ms total)
T2830 8399:461 JLINK_WriteReg(R9, 0x20000160)  returns 0x00 (0000ms, 8670ms total)
T2830 8399:461 JLINK_WriteReg(R10, 0x00000000)  returns 0x00 (0000ms, 8670ms total)
T2830 8399:461 JLINK_WriteReg(R11, 0x00000000)  returns 0x00 (0000ms, 8670ms total)
T2830 8399:461 JLINK_WriteReg(R12, 0x00000000)  returns 0x00 (0000ms, 8670ms total)
T2830 8399:461 JLINK_WriteReg(R13 (SP), 0x20001000)  returns 0x00 (0000ms, 8670ms total)
T2830 8399:461 JLINK_WriteReg(R14, 0x20000001)  returns 0x00 (0000ms, 8670ms total)
T2830 8399:461 JLINK_WriteReg(R15 (PC), 0x200000F4)  returns 0x00 (0000ms, 8670ms total)
T2830 8399:461 JLINK_WriteReg(XPSR, 0x01000000)  returns 0x00 (0000ms, 8670ms total)
T2830 8399:461 JLINK_WriteReg(MSP, 0x20001000)  returns 0x00 (0000ms, 8670ms total)
T2830 8399:461 JLINK_WriteReg(PSP, 0x20001000)  returns 0x00 (0001ms, 8671ms total)
T2830 8399:462 JLINK_WriteReg(CFBP, 0x00000000)  returns 0x00 (0000ms, 8671ms total)
T2830 8399:462 JLINK_SetBPEx(Addr = 0x20000000, Type = 0xFFFFFFF2)  returns 0x00000006 (0000ms, 8671ms total)
T2830 8399:462 JLINK_Go() -- CPU_ReadMem(4 bytes @ 0xE0001000) (0002ms, 8673ms total)
T2830 8399:464 JLINK_IsHalted()  returns FALSE (0001ms, 8674ms total)
T2830 8399:510 JLINK_IsHalted() -- CPU_ReadMem(2 bytes @ 0x20000000)  returns TRUE (0003ms, 8676ms total)
T2830 8399:513 JLINK_ReadReg(R15 (PC))  returns 0x20000000 (0000ms, 8673ms total)
T2830 8399:513 JLINK_ClrBPEx(BPHandle = 0x00000006)  returns 0x00 (0001ms, 8674ms total)
T2830 8399:514 JLINK_ReadReg(R0)  returns 0x00000000 (0000ms, 8674ms total)
T2830 8399:514 JLINK_WriteMem(0x20000164, 0x029C Bytes, ...) - Data: AD F8 06 00 AD F8 08 00 AD F8 0A 00 AD F8 0C 00 ... -- CPU_WriteMem(668 bytes @ 0x20000164)  returns 0x29C (0009ms, 8683ms total)
T2830 8399:523 JLINK_WriteMem(0x20000400, 0x0164 Bytes, ...) - Data: CA FB 00 20 8D F8 1A 00 8D F8 1B 00 8D F8 1C 00 ... -- CPU_WriteMem(356 bytes @ 0x20000400)  returns 0x164 (0004ms, 8687ms total)
T2830 8399:527 JLINK_WriteReg(R0, 0x08000800)  returns 0x00 (0000ms, 8687ms total)
T2830 8399:527 JLINK_WriteReg(R1, 0x00000400)  returns 0x00 (0001ms, 8688ms total)
T2830 8399:528 JLINK_WriteReg(R2, 0x20000164)  returns 0x00 (0000ms, 8688ms total)
T2830 8399:528 JLINK_WriteReg(R3, 0x00000000)  returns 0x00 (0000ms, 8688ms total)
T2830 8399:528 JLINK_WriteReg(R4, 0x00000000)  returns 0x00 (0000ms, 8688ms total)
T2830 8399:528 JLINK_WriteReg(R5, 0x00000000)  returns 0x00 (0000ms, 8688ms total)
T2830 8399:528 JLINK_WriteReg(R6, 0x00000000)  returns 0x00 (0000ms, 8688ms total)
T2830 8399:528 JLINK_WriteReg(R7, 0x00000000)  returns 0x00 (0000ms, 8688ms total)
T2830 8399:528 JLINK_WriteReg(R8, 0x00000000)  returns 0x00 (0000ms, 8688ms total)
T2830 8399:528 JLINK_WriteReg(R9, 0x20000160)  returns 0x00 (0000ms, 8688ms total)
T2830 8399:528 JLINK_WriteReg(R10, 0x00000000)  returns 0x00 (0000ms, 8688ms total)
T2830 8399:528 JLINK_WriteReg(R11, 0x00000000)  returns 0x00 (0000ms, 8688ms total)
T2830 8399:528 JLINK_WriteReg(R12, 0x00000000)  returns 0x00 (0000ms, 8688ms total)
T2830 8399:528 JLINK_WriteReg(R13 (SP), 0x20001000)  returns 0x00 (0000ms, 8688ms total)
T2830 8399:528 JLINK_WriteReg(R14, 0x20000001)  returns 0x00 (0000ms, 8688ms total)
T2830 8399:528 JLINK_WriteReg(R15 (PC), 0x200000F4)  returns 0x00 (0000ms, 8688ms total)
T2830 8399:528 JLINK_WriteReg(XPSR, 0x01000000)  returns 0x00 (0000ms, 8688ms total)
T2830 8399:528 JLINK_WriteReg(MSP, 0x20001000)  returns 0x00 (0000ms, 8688ms total)
T2830 8399:528 JLINK_WriteReg(PSP, 0x20001000)  returns 0x00 (0000ms, 8688ms total)
T2830 8399:528 JLINK_WriteReg(CFBP, 0x00000000)  returns 0x00 (0000ms, 8688ms total)
T2830 8399:528 JLINK_SetBPEx(Addr = 0x20000000, Type = 0xFFFFFFF2)  returns 0x00000007 (0000ms, 8688ms total)
T2830 8399:528 JLINK_Go() -- CPU_ReadMem(4 bytes @ 0xE0001000) (0002ms, 8690ms total)
T2830 8399:530 JLINK_IsHalted()  returns FALSE (0001ms, 8691ms total)
T2830 8399:533 JLINK_IsHalted()  returns FALSE (0000ms, 8690ms total)
T2830 8399:535 JLINK_IsHalted()  returns FALSE (0000ms, 8690ms total)
T2830 8399:537 JLINK_IsHalted()  returns FALSE (0000ms, 8690ms total)
T2830 8399:539 JLINK_IsHalted()  returns FALSE (0000ms, 8690ms total)
T2830 8399:541 JLINK_IsHalted()  returns FALSE (0000ms, 8690ms total)
T2830 8399:543 JLINK_IsHalted()  returns FALSE (0000ms, 8690ms total)
T2830 8399:545 JLINK_IsHalted()  returns FALSE (0000ms, 8690ms total)
T2830 8399:547 JLINK_IsHalted()  returns FALSE (0000ms, 8690ms total)
T2830 8399:549 JLINK_IsHalted()  returns FALSE (0000ms, 8690ms total)
T2830 8399:551 JLINK_IsHalted()  returns FALSE (0000ms, 8690ms total)
T2830 8399:553 JLINK_IsHalted()  returns FALSE (0000ms, 8690ms total)
T2830 8399:555 JLINK_IsHalted()  returns FALSE (0000ms, 8690ms total)
T2830 8399:557 JLINK_IsHalted()  returns FALSE (0000ms, 8690ms total)
T2830 8399:608 JLINK_IsHalted() -- CPU_ReadMem(2 bytes @ 0x20000000)  returns TRUE (0003ms, 8693ms total)
T2830 8399:611 JLINK_ReadReg(R15 (PC))  returns 0x20000000 (0000ms, 8690ms total)
T2830 8399:611 JLINK_ClrBPEx(BPHandle = 0x00000007)  returns 0x00 (0000ms, 8690ms total)
T2830 8399:611 JLINK_ReadReg(R0)  returns 0x00000000 (0000ms, 8690ms total)
T2830 8399:612 JLINK_WriteMem(0x20000164, 0x029C Bytes, ...) - Data: 1B 48 C0 88 40 1E 00 B2 19 49 C8 80 18 49 08 88 ... -- CPU_WriteMem(668 bytes @ 0x20000164)  returns 0x29C (0008ms, 8698ms total)
T2830 8399:620 JLINK_WriteMem(0x20000400, 0x0164 Bytes, ...) - Data: 1A 60 06 E0 15 4A 12 1D 12 68 0A 43 13 4B 1B 1D ... -- CPU_WriteMem(356 bytes @ 0x20000400)  returns 0x164 (0005ms, 8703ms total)
T2830 8399:625 JLINK_WriteReg(R0, 0x08000C00)  returns 0x00 (0000ms, 8703ms total)
T2830 8399:625 JLINK_WriteReg(R1, 0x00000400)  returns 0x00 (0000ms, 8703ms total)
T2830 8399:625 JLINK_WriteReg(R2, 0x20000164)  returns 0x00 (0000ms, 8703ms total)
T2830 8399:625 JLINK_WriteReg(R3, 0x00000000)  returns 0x00 (0000ms, 8703ms total)
T2830 8399:625 JLINK_WriteReg(R4, 0x00000000)  returns 0x00 (0000ms, 8703ms total)
T2830 8399:625 JLINK_WriteReg(R5, 0x00000000)  returns 0x00 (0000ms, 8703ms total)
T2830 8399:625 JLINK_WriteReg(R6, 0x00000000)  returns 0x00 (0000ms, 8703ms total)
T2830 8399:625 JLINK_WriteReg(R7, 0x00000000)  returns 0x00 (0000ms, 8703ms total)
T2830 8399:625 JLINK_WriteReg(R8, 0x00000000)  returns 0x00 (0000ms, 8703ms total)
T2830 8399:625 JLINK_WriteReg(R9, 0x20000160)  returns 0x00 (0000ms, 8703ms total)
T2830 8399:625 JLINK_WriteReg(R10, 0x00000000)  returns 0x00 (0000ms, 8703ms total)
T2830 8399:625 JLINK_WriteReg(R11, 0x00000000)  returns 0x00 (0000ms, 8703ms total)
T2830 8399:625 JLINK_WriteReg(R12, 0x00000000)  returns 0x00 (0000ms, 8703ms total)
T2830 8399:625 JLINK_WriteReg(R13 (SP), 0x20001000)  returns 0x00 (0000ms, 8703ms total)
T2830 8399:625 JLINK_WriteReg(R14, 0x20000001)  returns 0x00 (0000ms, 8703ms total)
T2830 8399:625 JLINK_WriteReg(R15 (PC), 0x200000F4)  returns 0x00 (0000ms, 8703ms total)
T2830 8399:625 JLINK_WriteReg(XPSR, 0x01000000)  returns 0x00 (0000ms, 8703ms total)
T2830 8399:625 JLINK_WriteReg(MSP, 0x20001000)  returns 0x00 (0000ms, 8703ms total)
T2830 8399:625 JLINK_WriteReg(PSP, 0x20001000)  returns 0x00 (0000ms, 8703ms total)
T2830 8399:626 JLINK_WriteReg(CFBP, 0x00000000)  returns 0x00 (0000ms, 8704ms total)
T2830 8399:626 JLINK_SetBPEx(Addr = 0x20000000, Type = 0xFFFFFFF2)  returns 0x00000008 (0000ms, 8704ms total)
T2830 8399:626 JLINK_Go() -- CPU_ReadMem(4 bytes @ 0xE0001000) (0002ms, 8706ms total)
T2830 8399:628 JLINK_IsHalted()  returns FALSE (0000ms, 8706ms total)
T2830 8399:630 JLINK_IsHalted()  returns FALSE (0000ms, 8706ms total)
T2830 8399:632 JLINK_IsHalted()  returns FALSE (0000ms, 8706ms total)
T2830 8399:634 JLINK_IsHalted()  returns FALSE (0000ms, 8706ms total)
T2830 8399:636 JLINK_IsHalted()  returns FALSE (0000ms, 8706ms total)
T2830 8399:638 JLINK_IsHalted()  returns FALSE (0000ms, 8706ms total)
T2830 8399:640 JLINK_IsHalted()  returns FALSE (0000ms, 8706ms total)
T2830 8399:644 JLINK_IsHalted()  returns FALSE (0000ms, 8706ms total)
T2830 8399:646 JLINK_IsHalted()  returns FALSE (0000ms, 8706ms total)
T2830 8399:648 JLINK_IsHalted()  returns FALSE (0000ms, 8706ms total)
T2830 8399:650 JLINK_IsHalted()  returns FALSE (0000ms, 8706ms total)
T2830 8399:652 JLINK_IsHalted()  returns FALSE (0000ms, 8706ms total)
T2830 8399:654 JLINK_IsHalted()  returns FALSE (0000ms, 8706ms total)
T2830 8399:656 JLINK_IsHalted()  returns FALSE (0000ms, 8706ms total)
T2830 8399:658 JLINK_IsHalted()  returns FALSE (0000ms, 8706ms total)
T2830 8399:660 JLINK_IsHalted() -- CPU_ReadMem(2 bytes @ 0x20000000)  returns TRUE (0004ms, 8710ms total)
T2830 8399:664 JLINK_ReadReg(R15 (PC))  returns 0x20000000 (0000ms, 8706ms total)
T2830 8399:664 JLINK_ClrBPEx(BPHandle = 0x00000008)  returns 0x00 (0000ms, 8706ms total)
T2830 8399:664 JLINK_ReadReg(R0)  returns 0x00000000 (0000ms, 8706ms total)
T2830 8399:668 JLINK_WriteMem(0x20000164, 0x029C Bytes, ...) - Data: 04 21 00 F0 B9 F9 06 46 02 E0 FF E7 00 26 00 BF ... -- CPU_WriteMem(668 bytes @ 0x20000164)  returns 0x29C (0008ms, 8714ms total)
T2830 8399:677 JLINK_WriteMem(0x20000400, 0x0164 Bytes, ...) - Data: C0 73 03 EB 00 13 1C 60 0B 7A 7B B9 4B 7A 0C 88 ... -- CPU_WriteMem(356 bytes @ 0x20000400)  returns 0x164 (0005ms, 8719ms total)
T2830 8399:682 JLINK_WriteReg(R0, 0x08001000)  returns 0x00 (0000ms, 8719ms total)
T2830 8399:682 JLINK_WriteReg(R1, 0x00000400)  returns 0x00 (0000ms, 8719ms total)
T2830 8399:682 JLINK_WriteReg(R2, 0x20000164)  returns 0x00 (0000ms, 8719ms total)
T2830 8399:682 JLINK_WriteReg(R3, 0x00000000)  returns 0x00 (0000ms, 8719ms total)
T2830 8399:682 JLINK_WriteReg(R4, 0x00000000)  returns 0x00 (0000ms, 8719ms total)
T2830 8399:682 JLINK_WriteReg(R5, 0x00000000)  returns 0x00 (0000ms, 8719ms total)
T2830 8399:682 JLINK_WriteReg(R6, 0x00000000)  returns 0x00 (0000ms, 8719ms total)
T2830 8399:682 JLINK_WriteReg(R7, 0x00000000)  returns 0x00 (0000ms, 8719ms total)
T2830 8399:682 JLINK_WriteReg(R8, 0x00000000)  returns 0x00 (0000ms, 8719ms total)
T2830 8399:682 JLINK_WriteReg(R9, 0x20000160)  returns 0x00 (0000ms, 8719ms total)
T2830 8399:682 JLINK_WriteReg(R10, 0x00000000)  returns 0x00 (0000ms, 8719ms total)
T2830 8399:682 JLINK_WriteReg(R11, 0x00000000)  returns 0x00 (0000ms, 8719ms total)
T2830 8399:682 JLINK_WriteReg(R12, 0x00000000)  returns 0x00 (0000ms, 8719ms total)
T2830 8399:682 JLINK_WriteReg(R13 (SP), 0x20001000)  returns 0x00 (0000ms, 8719ms total)
T2830 8399:682 JLINK_WriteReg(R14, 0x20000001)  returns 0x00 (0000ms, 8719ms total)
T2830 8399:682 JLINK_WriteReg(R15 (PC), 0x200000F4)  returns 0x00 (0000ms, 8719ms total)
T2830 8399:682 JLINK_WriteReg(XPSR, 0x01000000)  returns 0x00 (0000ms, 8719ms total)
T2830 8399:682 JLINK_WriteReg(MSP, 0x20001000)  returns 0x00 (0000ms, 8719ms total)
T2830 8399:682 JLINK_WriteReg(PSP, 0x20001000)  returns 0x00 (0000ms, 8719ms total)
T2830 8399:682 JLINK_WriteReg(CFBP, 0x00000000)  returns 0x00 (0000ms, 8719ms total)
T2830 8399:682 JLINK_SetBPEx(Addr = 0x20000000, Type = 0xFFFFFFF2)  returns 0x00000009 (0000ms, 8719ms total)
T2830 8399:682 JLINK_Go() -- CPU_ReadMem(4 bytes @ 0xE0001000) (0003ms, 8722ms total)
T2830 8399:685 JLINK_IsHalted()  returns FALSE (0000ms, 8722ms total)
T2830 8399:734 JLINK_IsHalted() -- CPU_ReadMem(2 bytes @ 0x20000000)  returns TRUE (0004ms, 8726ms total)
T2830 8399:738 JLINK_ReadReg(R15 (PC))  returns 0x20000000 (0000ms, 8722ms total)
T2830 8399:738 JLINK_ClrBPEx(BPHandle = 0x00000009)  returns 0x00 (0000ms, 8722ms total)
T2830 8399:738 JLINK_ReadReg(R0)  returns 0x00000000 (0000ms, 8722ms total)
T2830 8399:739 JLINK_WriteMem(0x20000164, 0x029C Bytes, ...) - Data: 0A 68 02 60 8A 88 82 80 89 79 81 71 00 24 13 E0 ... -- CPU_WriteMem(668 bytes @ 0x20000164)  returns 0x29C (0009ms, 8731ms total)
T2830 8399:748 JLINK_WriteMem(0x20000400, 0x0164 Bytes, ...) - Data: 02 4A 12 1F 11 60 70 47 08 00 02 40 08 04 02 40 ... -- CPU_WriteMem(356 bytes @ 0x20000400)  returns 0x164 (0005ms, 8736ms total)
T2830 8399:753 JLINK_WriteReg(R0, 0x08001400)  returns 0x00 (0000ms, 8736ms total)
T2830 8399:753 JLINK_WriteReg(R1, 0x00000400)  returns 0x00 (0000ms, 8736ms total)
T2830 8399:753 JLINK_WriteReg(R2, 0x20000164)  returns 0x00 (0000ms, 8736ms total)
T2830 8399:753 JLINK_WriteReg(R3, 0x00000000)  returns 0x00 (0000ms, 8736ms total)
T2830 8399:753 JLINK_WriteReg(R4, 0x00000000)  returns 0x00 (0000ms, 8736ms total)
T2830 8399:753 JLINK_WriteReg(R5, 0x00000000)  returns 0x00 (0000ms, 8736ms total)
T2830 8399:753 JLINK_WriteReg(R6, 0x00000000)  returns 0x00 (0000ms, 8736ms total)
T2830 8399:753 JLINK_WriteReg(R7, 0x00000000)  returns 0x00 (0000ms, 8736ms total)
T2830 8399:753 JLINK_WriteReg(R8, 0x00000000)  returns 0x00 (0000ms, 8736ms total)
T2830 8399:753 JLINK_WriteReg(R9, 0x20000160)  returns 0x00 (0000ms, 8736ms total)
T2830 8399:753 JLINK_WriteReg(R10, 0x00000000)  returns 0x00 (0000ms, 8736ms total)
T2830 8399:753 JLINK_WriteReg(R11, 0x00000000)  returns 0x00 (0000ms, 8736ms total)
T2830 8399:753 JLINK_WriteReg(R12, 0x00000000)  returns 0x00 (0000ms, 8736ms total)
T2830 8399:753 JLINK_WriteReg(R13 (SP), 0x20001000)  returns 0x00 (0000ms, 8736ms total)
T2830 8399:753 JLINK_WriteReg(R14, 0x20000001)  returns 0x00 (0000ms, 8736ms total)
T2830 8399:753 JLINK_WriteReg(R15 (PC), 0x200000F4)  returns 0x00 (0000ms, 8736ms total)
T2830 8399:753 JLINK_WriteReg(XPSR, 0x01000000)  returns 0x00 (0000ms, 8736ms total)
T2830 8399:753 JLINK_WriteReg(MSP, 0x20001000)  returns 0x00 (0000ms, 8736ms total)
T2830 8399:753 JLINK_WriteReg(PSP, 0x20001000)  returns 0x00 (0000ms, 8736ms total)
T2830 8399:753 JLINK_WriteReg(CFBP, 0x00000000)  returns 0x00 (0000ms, 8736ms total)
T2830 8399:753 JLINK_SetBPEx(Addr = 0x20000000, Type = 0xFFFFFFF2)  returns 0x0000000A (0000ms, 8736ms total)
T2830 8399:753 JLINK_Go() -- CPU_ReadMem(4 bytes @ 0xE0001000) (0003ms, 8739ms total)
T2830 8399:756 JLINK_IsHalted()  returns FALSE (0001ms, 8740ms total)
T2830 8399:759 JLINK_IsHalted()  returns FALSE (0000ms, 8739ms total)
T2830 8399:761 JLINK_IsHalted()  returns FALSE (0000ms, 8739ms total)
T2830 8399:763 JLINK_IsHalted()  returns FALSE (0000ms, 8739ms total)
T2830 8399:764 JLINK_IsHalted()  returns FALSE (0000ms, 8739ms total)
T2830 8399:767 JLINK_IsHalted()  returns FALSE (0000ms, 8739ms total)
T2830 8399:768 JLINK_IsHalted()  returns FALSE (0000ms, 8739ms total)
T2830 8399:771 JLINK_IsHalted()  returns FALSE (0000ms, 8739ms total)
T2830 8399:773 JLINK_IsHalted()  returns FALSE (0000ms, 8739ms total)
T2830 8399:775 JLINK_IsHalted()  returns FALSE (0000ms, 8739ms total)
T2830 8399:820 JLINK_IsHalted() -- CPU_ReadMem(2 bytes @ 0x20000000)  returns TRUE (0003ms, 8742ms total)
T2830 8399:824 JLINK_ReadReg(R15 (PC))  returns 0x20000000 (0000ms, 8739ms total)
T2830 8399:824 JLINK_ClrBPEx(BPHandle = 0x0000000A)  returns 0x00 (0000ms, 8739ms total)
T2830 8399:824 JLINK_ReadReg(R0)  returns 0x00000000 (0000ms, 8739ms total)
T2830 8399:824 JLINK_WriteMem(0x20000164, 0x029C Bytes, ...) - Data: 00 C0 BC F1 FF 0F 34 DD 54 68 00 20 2E E0 00 F1 ... -- CPU_WriteMem(668 bytes @ 0x20000164)  returns 0x29C (0009ms, 8748ms total)
T2830 8399:833 JLINK_WriteMem(0x20000400, 0x0164 Bytes, ...) - Data: 16 E0 00 20 10 49 08 60 07 20 03 F0 95 FA 01 20 ... -- CPU_WriteMem(356 bytes @ 0x20000400)  returns 0x164 (0004ms, 8752ms total)
T2830 8399:837 JLINK_WriteReg(R0, 0x08001800)  returns 0x00 (0000ms, 8752ms total)
T2830 8399:837 JLINK_WriteReg(R1, 0x00000400)  returns 0x00 (0000ms, 8752ms total)
T2830 8399:838 JLINK_WriteReg(R2, 0x20000164)  returns 0x00 (0000ms, 8752ms total)
T2830 8399:838 JLINK_WriteReg(R3, 0x00000000)  returns 0x00 (0000ms, 8752ms total)
T2830 8399:838 JLINK_WriteReg(R4, 0x00000000)  returns 0x00 (0000ms, 8752ms total)
T2830 8399:838 JLINK_WriteReg(R5, 0x00000000)  returns 0x00 (0000ms, 8752ms total)
T2830 8399:838 JLINK_WriteReg(R6, 0x00000000)  returns 0x00 (0000ms, 8752ms total)
T2830 8399:838 JLINK_WriteReg(R7, 0x00000000)  returns 0x00 (0000ms, 8752ms total)
T2830 8399:838 JLINK_WriteReg(R8, 0x00000000)  returns 0x00 (0000ms, 8752ms total)
T2830 8399:838 JLINK_WriteReg(R9, 0x20000160)  returns 0x00 (0000ms, 8752ms total)
T2830 8399:838 JLINK_WriteReg(R10, 0x00000000)  returns 0x00 (0000ms, 8752ms total)
T2830 8399:838 JLINK_WriteReg(R11, 0x00000000)  returns 0x00 (0000ms, 8752ms total)
T2830 8399:838 JLINK_WriteReg(R12, 0x00000000)  returns 0x00 (0000ms, 8752ms total)
T2830 8399:838 JLINK_WriteReg(R13 (SP), 0x20001000)  returns 0x00 (0000ms, 8752ms total)
T2830 8399:838 JLINK_WriteReg(R14, 0x20000001)  returns 0x00 (0000ms, 8752ms total)
T2830 8399:838 JLINK_WriteReg(R15 (PC), 0x200000F4)  returns 0x00 (0000ms, 8752ms total)
T2830 8399:838 JLINK_WriteReg(XPSR, 0x01000000)  returns 0x00 (0000ms, 8752ms total)
T2830 8399:838 JLINK_WriteReg(MSP, 0x20001000)  returns 0x00 (0000ms, 8752ms total)
T2830 8399:838 JLINK_WriteReg(PSP, 0x20001000)  returns 0x00 (0000ms, 8752ms total)
T2830 8399:838 JLINK_WriteReg(CFBP, 0x00000000)  returns 0x00 (0000ms, 8752ms total)
T2830 8399:838 JLINK_SetBPEx(Addr = 0x20000000, Type = 0xFFFFFFF2)  returns 0x0000000B (0000ms, 8752ms total)
T2830 8399:838 JLINK_Go() -- CPU_ReadMem(4 bytes @ 0xE0001000) (0003ms, 8755ms total)
T2830 8399:841 JLINK_IsHalted()  returns FALSE (0001ms, 8756ms total)
T2830 8399:844 JLINK_IsHalted()  returns FALSE (0000ms, 8755ms total)
T2830 8399:846 JLINK_IsHalted()  returns FALSE (0000ms, 8755ms total)
T2830 8399:848 JLINK_IsHalted()  returns FALSE (0000ms, 8755ms total)
T2830 8399:850 JLINK_IsHalted()  returns FALSE (0000ms, 8755ms total)
T2830 8399:852 JLINK_IsHalted()  returns FALSE (0000ms, 8755ms total)
T2830 8399:854 JLINK_IsHalted()  returns FALSE (0000ms, 8755ms total)
T2830 8399:856 JLINK_IsHalted()  returns FALSE (0000ms, 8755ms total)
T2830 8399:858 JLINK_IsHalted()  returns FALSE (0000ms, 8755ms total)
T2830 8399:860 JLINK_IsHalted()  returns FALSE (0001ms, 8756ms total)
T2830 8399:862 JLINK_IsHalted()  returns FALSE (0000ms, 8755ms total)
T2830 8399:864 JLINK_IsHalted()  returns FALSE (0001ms, 8756ms total)
T2830 8399:866 JLINK_IsHalted()  returns FALSE (0000ms, 8755ms total)
T2830 8399:868 JLINK_IsHalted()  returns FALSE (0000ms, 8755ms total)
T2830 8399:870 JLINK_IsHalted()  returns FALSE (0000ms, 8755ms total)
T2830 8399:872 JLINK_IsHalted() -- CPU_ReadMem(2 bytes @ 0x20000000)  returns TRUE (0004ms, 8759ms total)
T2830 8399:876 JLINK_ReadReg(R15 (PC))  returns 0x20000000 (0000ms, 8755ms total)
T2830 8399:876 JLINK_ClrBPEx(BPHandle = 0x0000000B)  returns 0x00 (0000ms, 8755ms total)
T2830 8399:876 JLINK_ReadReg(R0)  returns 0x00000000 (0000ms, 8755ms total)
T2830 8399:876 JLINK_WriteMem(0x20000164, 0x029C Bytes, ...) - Data: E9 F9 07 E0 60 1C C4 B2 FA 2C 03 DD FF F7 C2 FF ... -- CPU_WriteMem(668 bytes @ 0x20000164)  returns 0x29C (0009ms, 8764ms total)
T2830 8399:885 JLINK_WriteMem(0x20000400, 0x0164 Bytes, ...) - Data: 88 00 00 20 44 00 02 40 70 B5 05 46 0A 22 02 21 ... -- CPU_WriteMem(356 bytes @ 0x20000400)  returns 0x164 (0005ms, 8769ms total)
T2830 8399:891 JLINK_WriteReg(R0, 0x08001C00)  returns 0x00 (0000ms, 8769ms total)
T2830 8399:891 JLINK_WriteReg(R1, 0x00000400)  returns 0x00 (0000ms, 8769ms total)
T2830 8399:891 JLINK_WriteReg(R2, 0x20000164)  returns 0x00 (0000ms, 8769ms total)
T2830 8399:891 JLINK_WriteReg(R3, 0x00000000)  returns 0x00 (0000ms, 8769ms total)
T2830 8399:891 JLINK_WriteReg(R4, 0x00000000)  returns 0x00 (0000ms, 8769ms total)
T2830 8399:891 JLINK_WriteReg(R5, 0x00000000)  returns 0x00 (0000ms, 8769ms total)
T2830 8399:891 JLINK_WriteReg(R6, 0x00000000)  returns 0x00 (0000ms, 8769ms total)
T2830 8399:891 JLINK_WriteReg(R7, 0x00000000)  returns 0x00 (0000ms, 8769ms total)
T2830 8399:891 JLINK_WriteReg(R8, 0x00000000)  returns 0x00 (0000ms, 8769ms total)
T2830 8399:891 JLINK_WriteReg(R9, 0x20000160)  returns 0x00 (0000ms, 8769ms total)
T2830 8399:891 JLINK_WriteReg(R10, 0x00000000)  returns 0x00 (0000ms, 8769ms total)
T2830 8399:891 JLINK_WriteReg(R11, 0x00000000)  returns 0x00 (0000ms, 8769ms total)
T2830 8399:891 JLINK_WriteReg(R12, 0x00000000)  returns 0x00 (0000ms, 8769ms total)
T2830 8399:891 JLINK_WriteReg(R13 (SP), 0x20001000)  returns 0x00 (0000ms, 8769ms total)
T2830 8399:891 JLINK_WriteReg(R14, 0x20000001)  returns 0x00 (0000ms, 8769ms total)
T2830 8399:891 JLINK_WriteReg(R15 (PC), 0x200000F4)  returns 0x00 (0000ms, 8769ms total)
T2830 8399:891 JLINK_WriteReg(XPSR, 0x01000000)  returns 0x00 (0000ms, 8769ms total)
T2830 8399:891 JLINK_WriteReg(MSP, 0x20001000)  returns 0x00 (0000ms, 8769ms total)
T2830 8399:891 JLINK_WriteReg(PSP, 0x20001000)  returns 0x00 (0000ms, 8769ms total)
T2830 8399:891 JLINK_WriteReg(CFBP, 0x00000000)  returns 0x00 (0000ms, 8769ms total)
T2830 8399:891 JLINK_SetBPEx(Addr = 0x20000000, Type = 0xFFFFFFF2)  returns 0x0000000C (0000ms, 8769ms total)
T2830 8399:891 JLINK_Go() -- CPU_ReadMem(4 bytes @ 0xE0001000) (0003ms, 8772ms total)
T2830 8399:894 JLINK_IsHalted()  returns FALSE (0001ms, 8773ms total)
T2830 8399:943 JLINK_IsHalted() -- CPU_ReadMem(2 bytes @ 0x20000000)  returns TRUE (0004ms, 8776ms total)
T2830 8399:947 JLINK_ReadReg(R15 (PC))  returns 0x20000000 (0000ms, 8772ms total)
T2830 8399:947 JLINK_ClrBPEx(BPHandle = 0x0000000C)  returns 0x00 (0000ms, 8772ms total)
T2830 8399:947 JLINK_ReadReg(R0)  returns 0x00000000 (0000ms, 8772ms total)
T2830 8399:948 JLINK_WriteMem(0x20000164, 0x029C Bytes, ...) - Data: 04 F0 1F 05 01 24 AC 40 04 4D 06 78 76 11 45 F8 ... -- CPU_WriteMem(668 bytes @ 0x20000164)  returns 0x29C (0008ms, 8780ms total)
T2830 8399:956 JLINK_WriteMem(0x20000400, 0x0164 Bytes, ...) - Data: D0 F8 04 80 28 FA 03 F8 C0 F8 0C 80 DF F8 24 80 ... -- CPU_WriteMem(356 bytes @ 0x20000400)  returns 0x164 (0005ms, 8785ms total)
T2830 8399:961 JLINK_WriteReg(R0, 0x08002000)  returns 0x00 (0000ms, 8785ms total)
T2830 8399:961 JLINK_WriteReg(R1, 0x00000400)  returns 0x00 (0000ms, 8785ms total)
T2830 8399:961 JLINK_WriteReg(R2, 0x20000164)  returns 0x00 (0000ms, 8785ms total)
T2830 8399:961 JLINK_WriteReg(R3, 0x00000000)  returns 0x00 (0000ms, 8785ms total)
T2830 8399:961 JLINK_WriteReg(R4, 0x00000000)  returns 0x00 (0000ms, 8785ms total)
T2830 8399:961 JLINK_WriteReg(R5, 0x00000000)  returns 0x00 (0000ms, 8785ms total)
T2830 8399:961 JLINK_WriteReg(R6, 0x00000000)  returns 0x00 (0000ms, 8785ms total)
T2830 8399:961 JLINK_WriteReg(R7, 0x00000000)  returns 0x00 (0000ms, 8785ms total)
T2830 8399:961 JLINK_WriteReg(R8, 0x00000000)  returns 0x00 (0000ms, 8785ms total)
T2830 8399:961 JLINK_WriteReg(R9, 0x20000160)  returns 0x00 (0000ms, 8785ms total)
T2830 8399:961 JLINK_WriteReg(R10, 0x00000000)  returns 0x00 (0001ms, 8786ms total)
T2830 8399:962 JLINK_WriteReg(R11, 0x00000000)  returns 0x00 (0000ms, 8786ms total)
T2830 8399:962 JLINK_WriteReg(R12, 0x00000000)  returns 0x00 (0000ms, 8786ms total)
T2830 8399:962 JLINK_WriteReg(R13 (SP), 0x20001000)  returns 0x00 (0000ms, 8786ms total)
T2830 8399:962 JLINK_WriteReg(R14, 0x20000001)  returns 0x00 (0000ms, 8786ms total)
T2830 8399:962 JLINK_WriteReg(R15 (PC), 0x200000F4)  returns 0x00 (0000ms, 8786ms total)
T2830 8399:962 JLINK_WriteReg(XPSR, 0x01000000)  returns 0x00 (0000ms, 8786ms total)
T2830 8399:962 JLINK_WriteReg(MSP, 0x20001000)  returns 0x00 (0000ms, 8786ms total)
T2830 8399:962 JLINK_WriteReg(PSP, 0x20001000)  returns 0x00 (0000ms, 8786ms total)
T2830 8399:962 JLINK_WriteReg(CFBP, 0x00000000)  returns 0x00 (0000ms, 8786ms total)
T2830 8399:962 JLINK_SetBPEx(Addr = 0x20000000, Type = 0xFFFFFFF2)  returns 0x0000000D (0000ms, 8786ms total)
T2830 8399:962 JLINK_Go() -- CPU_ReadMem(4 bytes @ 0xE0001000) (0002ms, 8788ms total)
T2830 8399:964 JLINK_IsHalted()  returns FALSE (0001ms, 8789ms total)
T2830 8399:967 JLINK_IsHalted()  returns FALSE (0000ms, 8788ms total)
T2830 8399:969 JLINK_IsHalted()  returns FALSE (0000ms, 8788ms total)
T2830 8399:971 JLINK_IsHalted()  returns FALSE (0000ms, 8788ms total)
T2830 8399:973 JLINK_IsHalted()  returns FALSE (0000ms, 8788ms total)
T2830 8399:975 JLINK_IsHalted()  returns FALSE (0000ms, 8788ms total)
T2830 8399:977 JLINK_IsHalted()  returns FALSE (0000ms, 8788ms total)
T2830 8399:979 JLINK_IsHalted()  returns FALSE (0000ms, 8788ms total)
T2830 8399:981 JLINK_IsHalted()  returns FALSE (0000ms, 8788ms total)
T2830 8399:985 JLINK_IsHalted()  returns FALSE (0000ms, 8788ms total)
T2830 8399:987 JLINK_IsHalted()  returns FALSE (0000ms, 8788ms total)
T2830 8399:989 JLINK_IsHalted()  returns FALSE (0000ms, 8788ms total)
T2830 8399:991 JLINK_IsHalted()  returns FALSE (0000ms, 8788ms total)
T2830 8399:993 JLINK_IsHalted()  returns FALSE (0000ms, 8788ms total)
T2830 8399:995 JLINK_IsHalted()  returns FALSE (0000ms, 8788ms total)
T2830 8400:040 JLINK_IsHalted() -- CPU_ReadMem(2 bytes @ 0x20000000)  returns TRUE (0004ms, 8792ms total)
T2830 8400:044 JLINK_ReadReg(R15 (PC))  returns 0x20000000 (0000ms, 8788ms total)
T2830 8400:044 JLINK_ClrBPEx(BPHandle = 0x0000000D)  returns 0x00 (0000ms, 8788ms total)
T2830 8400:044 JLINK_ReadReg(R0)  returns 0x00000000 (0000ms, 8788ms total)
T2830 8400:045 JLINK_WriteMem(0x20000164, 0x029C Bytes, ...) - Data: AD F8 00 00 48 20 8D F8 03 00 03 20 8D F8 02 00 ... -- CPU_WriteMem(668 bytes @ 0x20000164)  returns 0x29C (0009ms, 8797ms total)
T2830 8400:054 JLINK_WriteMem(0x20000400, 0x0164 Bytes, ...) - Data: C1 48 00 78 04 28 02 D1 03 F0 3E F9 11 E3 BE 48 ... -- CPU_WriteMem(356 bytes @ 0x20000400)  returns 0x164 (0005ms, 8802ms total)
T2830 8400:059 JLINK_WriteReg(R0, 0x08002400)  returns 0x00 (0000ms, 8802ms total)
T2830 8400:059 JLINK_WriteReg(R1, 0x00000400)  returns 0x00 (0000ms, 8802ms total)
T2830 8400:059 JLINK_WriteReg(R2, 0x20000164)  returns 0x00 (0000ms, 8802ms total)
T2830 8400:059 JLINK_WriteReg(R3, 0x00000000)  returns 0x00 (0000ms, 8802ms total)
T2830 8400:059 JLINK_WriteReg(R4, 0x00000000)  returns 0x00 (0000ms, 8802ms total)
T2830 8400:059 JLINK_WriteReg(R5, 0x00000000)  returns 0x00 (0000ms, 8802ms total)
T2830 8400:059 JLINK_WriteReg(R6, 0x00000000)  returns 0x00 (0000ms, 8802ms total)
T2830 8400:059 JLINK_WriteReg(R7, 0x00000000)  returns 0x00 (0000ms, 8802ms total)
T2830 8400:059 JLINK_WriteReg(R8, 0x00000000)  returns 0x00 (0000ms, 8802ms total)
T2830 8400:059 JLINK_WriteReg(R9, 0x20000160)  returns 0x00 (0000ms, 8802ms total)
T2830 8400:059 JLINK_WriteReg(R10, 0x00000000)  returns 0x00 (0000ms, 8802ms total)
T2830 8400:059 JLINK_WriteReg(R11, 0x00000000)  returns 0x00 (0000ms, 8802ms total)
T2830 8400:059 JLINK_WriteReg(R12, 0x00000000)  returns 0x00 (0000ms, 8802ms total)
T2830 8400:059 JLINK_WriteReg(R13 (SP), 0x20001000)  returns 0x00 (0000ms, 8802ms total)
T2830 8400:059 JLINK_WriteReg(R14, 0x20000001)  returns 0x00 (0000ms, 8802ms total)
T2830 8400:059 JLINK_WriteReg(R15 (PC), 0x200000F4)  returns 0x00 (0000ms, 8802ms total)
T2830 8400:059 JLINK_WriteReg(XPSR, 0x01000000)  returns 0x00 (0000ms, 8802ms total)
T2830 8400:059 JLINK_WriteReg(MSP, 0x20001000)  returns 0x00 (0000ms, 8802ms total)
T2830 8400:059 JLINK_WriteReg(PSP, 0x20001000)  returns 0x00 (0000ms, 8802ms total)
T2830 8400:059 JLINK_WriteReg(CFBP, 0x00000000)  returns 0x00 (0000ms, 8802ms total)
T2830 8400:059 JLINK_SetBPEx(Addr = 0x20000000, Type = 0xFFFFFFF2)  returns 0x0000000E (0000ms, 8802ms total)
T2830 8400:059 JLINK_Go() -- CPU_ReadMem(4 bytes @ 0xE0001000) (0003ms, 8805ms total)
T2830 8400:062 JLINK_IsHalted()  returns FALSE (0000ms, 8805ms total)
T2830 8400:064 JLINK_IsHalted()  returns FALSE (0000ms, 8805ms total)
T2830 8400:066 JLINK_IsHalted()  returns FALSE (0000ms, 8805ms total)
T2830 8400:068 JLINK_IsHalted()  returns FALSE (0000ms, 8805ms total)
T2830 8400:070 JLINK_IsHalted()  returns FALSE (0000ms, 8805ms total)
T2830 8400:072 JLINK_IsHalted()  returns FALSE (0000ms, 8805ms total)
T2830 8400:074 JLINK_IsHalted()  returns FALSE (0000ms, 8805ms total)
T2830 8400:076 JLINK_IsHalted()  returns FALSE (0000ms, 8805ms total)
T2830 8400:078 JLINK_IsHalted()  returns FALSE (0000ms, 8805ms total)
T2830 8400:080 JLINK_IsHalted()  returns FALSE (0000ms, 8805ms total)
